! Mini-Circuits
! S2P DATA File Format
! Type: High Pass Filter
! Model: VHF-145+
! Note: All S Parameters are in dB deg format
! TEST CONDITIONS: INPUT POWER = 0dBm @Temperature = +25degC
! 401 Frequency points
!
# Hz S dB R 50
300000	4.642966e-002	-6.085882e-001	-6.156972e+001	1.190645e+002	-5.877467e+001	1.103614e+002	1.089018e-001	-6.306595e-001
10298500	-5.298203e-003	-9.239190e+000	-3.324976e+001	8.300952e+001	-3.325398e+001	8.262647e+001	3.697589e-002	-9.333676e+000
20297000	-4.029474e-002	-1.801951e+001	-2.765147e+001	7.344851e+001	-2.773251e+001	7.282112e+001	-3.255846e-003	-1.823607e+001
30295500	-7.048882e-002	-2.716620e+001	-2.492655e+001	6.367990e+001	-2.499395e+001	6.373512e+001	-4.607464e-002	-2.724520e+001
40294000	-7.327392e-002	-3.652826e+001	-2.371609e+001	5.386842e+001	-2.368857e+001	5.438340e+001	-6.203819e-002	-3.692391e+001
50292500	-1.049210e-001	-4.646889e+001	-2.352999e+001	4.513890e+001	-2.357064e+001	4.493869e+001	-8.549575e-002	-4.695047e+001
60291000	-1.516939e-001	-5.710276e+001	-2.492250e+001	3.646834e+001	-2.484369e+001	3.616867e+001	-1.295487e-001	-5.758153e+001
70289500	-1.935612e-001	-6.876784e+001	-2.902911e+001	3.021227e+001	-2.909695e+001	3.087241e+001	-1.908174e-001	-6.931459e+001
80288000	-2.891824e-001	-8.198708e+001	-4.066016e+001	1.117150e+002	-4.050492e+001	1.103428e+002	-2.733463e-001	-8.238561e+001
90286500	-4.460515e-001	-9.746636e+001	-2.552416e+001	1.593979e+002	-2.553690e+001	1.592386e+002	-4.409253e-001	-9.767598e+001
100285000	-7.491737e-001	-1.163863e+002	-1.986963e+001	1.483832e+002	-1.979462e+001	1.475785e+002	-7.002661e-001	-1.162716e+002
110283500	-1.283544e+000	-1.418924e+002	-1.950457e+001	1.377639e+002	-1.948259e+001	1.368441e+002	-1.189376e+000	-1.410025e+002
120282000	-2.990907e+000	1.760837e+002	-1.510656e+001	-1.490111e+002	-1.510763e+001	-1.493724e+002	-2.762077e+000	1.791654e+002
130280500	-1.302621e+001	1.152280e+002	-3.381376e+000	1.677945e+002	-3.360899e+000	1.677216e+002	-1.186939e+001	1.270987e+002
140279000	-2.654950e+001	-1.332530e+002	-1.416970e+000	1.274120e+002	-1.394357e+000	1.273352e+002	-2.495100e+001	-1.738538e+002
150277500	-2.231893e+001	-1.362952e+002	-9.602517e-001	1.041142e+002	-9.456594e-001	1.040653e+002	-2.418513e+001	-1.605502e+002
160276000	-2.518589e+001	-1.332981e+002	-7.316552e-001	8.785793e+001	-7.317476e-001	8.788116e+001	-2.872817e+001	-1.624802e+002
170274500	-2.889400e+001	-1.035404e+002	-5.985588e-001	7.527279e+001	-6.138089e-001	7.524246e+001	-3.391960e+001	-1.021269e+002
180273000	-2.669716e+001	-6.558037e+001	-5.256385e-001	6.484759e+001	-5.268265e-001	6.484326e+001	-2.807157e+001	-5.423993e+001
190271500	-2.346070e+001	-5.477674e+001	-4.727976e-001	5.605700e+001	-4.906346e-001	5.616224e+001	-2.408980e+001	-4.820118e+001
200270000	-2.140643e+001	-5.450561e+001	-4.562631e-001	4.857862e+001	-4.545293e-001	4.852416e+001	-2.182155e+001	-4.979045e+001
210268500	-2.017879e+001	-5.708576e+001	-4.278674e-001	4.182159e+001	-4.345651e-001	4.166388e+001	-2.034406e+001	-5.406183e+001
220267000	-1.929903e+001	-6.064661e+001	-4.223919e-001	3.577283e+001	-4.195774e-001	3.578359e+001	-1.943416e+001	-5.820808e+001
230265500	-1.886593e+001	-6.492915e+001	-4.236146e-001	3.012172e+001	-4.027739e-001	3.032925e+001	-1.890643e+001	-6.266826e+001
240264000	-1.867198e+001	-6.872253e+001	-4.107712e-001	2.499375e+001	-3.886780e-001	2.523509e+001	-1.859813e+001	-6.719456e+001
250262500	-1.848870e+001	-7.135125e+001	-3.877047e-001	2.042709e+001	-3.736887e-001	2.048727e+001	-1.842246e+001	-7.099501e+001
260261000	-1.827256e+001	-7.329236e+001	-3.904204e-001	1.616644e+001	-3.819286e-001	1.596434e+001	-1.818046e+001	-7.309115e+001
270259500	-1.841799e+001	-7.621313e+001	-3.747824e-001	1.202739e+001	-3.890318e-001	1.179881e+001	-1.826141e+001	-7.405088e+001
280258000	-1.867644e+001	-8.037796e+001	-3.675315e-001	7.997503e+000	-3.773087e-001	7.902847e+000	-1.858573e+001	-7.753758e+001
290256500	-1.858511e+001	-8.428472e+001	-3.486553e-001	4.155356e+000	-3.747996e-001	4.175295e+000	-1.862014e+001	-8.356384e+001
300255000	-1.840656e+001	-8.665908e+001	-3.519967e-001	5.573699e-001	-3.555661e-001	5.274748e-001	-1.837678e+001	-8.759158e+001
310253500	-1.864062e+001	-8.982701e+001	-3.571975e-001	-2.873469e+000	-3.371225e-001	-2.962323e+000	-1.865652e+001	-8.997644e+001
320252000	-1.893806e+001	-9.246903e+001	-3.510332e-001	-6.091385e+000	-3.328589e-001	-6.361616e+000	-1.892158e+001	-9.207827e+001
330250500	-1.910887e+001	-9.495146e+001	-3.252399e-001	-9.391981e+000	-3.283285e-001	-9.545442e+000	-1.910202e+001	-9.470230e+001
340249000	-1.911573e+001	-9.790320e+001	-3.292085e-001	-1.242323e+001	-3.226264e-001	-1.257929e+001	-1.917731e+001	-9.788063e+001
350247500	-1.971134e+001	-1.009152e+002	-3.229045e-001	-1.559983e+001	-3.249804e-001	-1.550357e+001	-1.961321e+001	-9.972345e+001
360246000	-2.015171e+001	-1.029217e+002	-3.132035e-001	-1.850190e+001	-3.333364e-001	-1.855674e+001	-1.987438e+001	-1.019302e+002
370244500	-2.027073e+001	-1.042508e+002	-3.328685e-001	-2.128515e+001	-3.236217e-001	-2.150931e+001	-1.996931e+001	-1.042613e+002
380243000	-2.018936e+001	-1.070104e+002	-3.225773e-001	-2.418755e+001	-3.250892e-001	-2.427231e+001	-2.010183e+001	-1.067353e+002
390241500	-2.082257e+001	-1.086402e+002	-3.240525e-001	-2.685036e+001	-3.137729e-001	-2.699230e+001	-2.074542e+001	-1.063074e+002
400240000	-2.159430e+001	-1.111080e+002	-3.211433e-001	-2.945602e+001	-3.086274e-001	-2.976414e+001	-2.164180e+001	-1.089635e+002
410238500	-2.174624e+001	-1.151461e+002	-3.250739e-001	-3.230674e+001	-3.108617e-001	-3.229821e+001	-2.178441e+001	-1.142903e+002
420237000	-2.145473e+001	-1.176745e+002	-3.280334e-001	-3.483681e+001	-3.114280e-001	-3.483411e+001	-2.140773e+001	-1.167283e+002
430235500	-2.171710e+001	-1.181943e+002	-3.205237e-001	-3.735117e+001	-3.099228e-001	-3.744942e+001	-2.152928e+001	-1.159829e+002
440234000	-2.212826e+001	-1.189957e+002	-3.088622e-001	-4.000065e+001	-3.176736e-001	-3.997215e+001	-2.189950e+001	-1.162025e+002
450232500	-2.231101e+001	-1.209497e+002	-3.082744e-001	-4.231957e+001	-3.061644e-001	-4.249795e+001	-2.197289e+001	-1.180418e+002
460231000	-2.234416e+001	-1.237356e+002	-3.049646e-001	-4.480052e+001	-3.023691e-001	-4.496103e+001	-2.195583e+001	-1.216209e+002
470229500	-2.240230e+001	-1.288023e+002	-3.111134e-001	-4.731350e+001	-3.191304e-001	-4.733095e+001	-2.221978e+001	-1.241355e+002
480228000	-2.255940e+001	-1.381647e+002	-3.159647e-001	-4.962898e+001	-3.030163e-001	-4.975065e+001	-2.265500e+001	-1.253459e+002
490226500	-2.282152e+001	-1.429126e+002	-3.151966e-001	-5.196063e+001	-3.032954e-001	-5.230122e+001	-2.275245e+001	-1.269783e+002
500225000	-2.318694e+001	-1.420532e+002	-2.966094e-001	-5.429763e+001	-3.104682e-001	-5.444318e+001	-2.271828e+001	-1.292404e+002
510223500	-2.334562e+001	-1.371848e+002	-3.115647e-001	-5.668348e+001	-2.994007e-001	-5.674389e+001	-2.291794e+001	-1.309112e+002
520222000	-2.442079e+001	-1.387268e+002	-3.102848e-001	-5.906312e+001	-3.060932e-001	-5.900492e+001	-2.380256e+001	-1.298988e+002
530220500	-2.452025e+001	-1.441704e+002	-3.192451e-001	-6.120111e+001	-3.083359e-001	-6.120092e+001	-2.398187e+001	-1.338962e+002
540219000	-2.403864e+001	-1.484640e+002	-3.198034e-001	-6.347456e+001	-3.131201e-001	-6.354703e+001	-2.359249e+001	-1.389387e+002
550217500	-2.406438e+001	-1.470479e+002	-3.140726e-001	-6.586215e+001	-3.211858e-001	-6.584968e+001	-2.348713e+001	-1.395221e+002
560216000	-2.509883e+001	-1.514705e+002	-3.182354e-001	-6.797628e+001	-3.159144e-001	-6.814778e+001	-2.369901e+001	-1.390806e+002
570214500	-2.594091e+001	-1.579852e+002	-3.098023e-001	-7.022975e+001	-3.387132e-001	-7.053405e+001	-2.365838e+001	-1.427235e+002
580213000	-2.607443e+001	-1.602786e+002	-3.213700e-001	-7.238548e+001	-3.209366e-001	-7.264782e+001	-2.357755e+001	-1.468563e+002
590211500	-2.523149e+001	-1.586143e+002	-3.396750e-001	-7.468993e+001	-3.284693e-001	-7.483113e+001	-2.373648e+001	-1.495652e+002
600210000	-2.456442e+001	-1.580714e+002	-3.385105e-001	-7.692087e+001	-3.024671e-001	-7.700999e+001	-2.409695e+001	-1.531174e+002
610208500	-2.430075e+001	-1.594091e+002	-3.383692e-001	-7.914023e+001	-3.206227e-001	-7.922830e+001	-2.425626e+001	-1.582648e+002
620207000	-2.397983e+001	-1.620100e+002	-3.549137e-001	-8.128868e+001	-3.295137e-001	-8.150067e+001	-2.408538e+001	-1.604113e+002
630205500	-2.392588e+001	-1.650480e+002	-3.453131e-001	-8.363255e+001	-3.408629e-001	-8.336936e+001	-2.385099e+001	-1.599921e+002
640204000	-2.480279e+001	-1.726719e+002	-3.563036e-001	-8.557326e+001	-3.271908e-001	-8.562924e+001	-2.373842e+001	-1.598275e+002
650202500	-2.507946e+001	1.617106e+002	-3.689676e-001	-8.759926e+001	-3.231464e-001	-8.795158e+001	-2.385690e+001	-1.652229e+002
660201000	-2.411279e+001	1.536481e+002	-3.589740e-001	-8.969973e+001	-3.385757e-001	-9.005170e+001	-2.342370e+001	-1.698395e+002
670199500	-2.385920e+001	1.635025e+002	-3.530597e-001	-9.185821e+001	-3.463558e-001	-9.212202e+001	-2.300280e+001	-1.711490e+002
680198000	-2.373659e+001	-1.776528e+002	-3.763298e-001	-9.416387e+001	-3.551418e-001	-9.432906e+001	-2.313385e+001	-1.691761e+002
690196500	-2.352373e+001	-1.799569e+002	-3.773546e-001	-9.623284e+001	-3.567615e-001	-9.655059e+001	-2.355977e+001	-1.736559e+002
700195000	-2.301770e+001	1.765416e+002	-3.903773e-001	-9.851951e+001	-3.592488e-001	-9.865515e+001	-2.347362e+001	-1.761612e+002
710193500	-2.258964e+001	1.735661e+002	-3.736563e-001	-1.008093e+002	-3.658603e-001	-1.007062e+002	-2.303806e+001	-1.774058e+002
720192000	-2.272618e+001	1.715511e+002	-3.925944e-001	-1.027515e+002	-3.602126e-001	-1.028202e+002	-2.254286e+001	-1.795015e+002
730190500	-2.239542e+001	1.693446e+002	-4.133168e-001	-1.049254e+002	-3.724230e-001	-1.048436e+002	-2.222834e+001	1.759837e+002
740189000	-2.177511e+001	1.664297e+002	-4.133603e-001	-1.070228e+002	-3.685946e-001	-1.071308e+002	-2.148074e+001	1.708101e+002
750187500	-2.137468e+001	1.634176e+002	-4.235139e-001	-1.090391e+002	-3.736868e-001	-1.092886e+002	-2.099132e+001	1.679191e+002
760186000	-2.153431e+001	1.612123e+002	-4.136677e-001	-1.112726e+002	-3.905474e-001	-1.112869e+002	-2.114365e+001	1.663792e+002
770184500	-2.149057e+001	1.586784e+002	-4.192236e-001	-1.135946e+002	-4.251400e-001	-1.132165e+002	-2.222975e+001	1.606836e+002
780183000	-2.039358e+001	1.546962e+002	-4.202841e-001	-1.156952e+002	-3.752586e-001	-1.155444e+002	-2.297776e+001	1.514597e+002
790181500	-1.960480e+001	1.518460e+002	-4.292341e-001	-1.178182e+002	-3.946427e-001	-1.177647e+002	-2.280439e+001	1.498224e+002
800180000	-1.974920e+001	1.501555e+002	-4.319054e-001	-1.199377e+002	-4.086980e-001	-1.200089e+002	-2.157044e+001	1.534708e+002
810178500	-2.019147e+001	1.489266e+002	-4.378002e-001	-1.220819e+002	-4.283843e-001	-1.221927e+002	-2.003819e+001	1.551128e+002
820177000	-1.938436e+001	1.462152e+002	-4.530832e-001	-1.243368e+002	-4.388163e-001	-1.243176e+002	-1.941239e+001	1.522979e+002
830175500	-1.884615e+001	1.431781e+002	-4.816515e-001	-1.264384e+002	-4.493901e-001	-1.264649e+002	-1.889531e+001	1.491523e+002
840174000	-1.870354e+001	1.403260e+002	-4.620958e-001	-1.285685e+002	-4.614898e-001	-1.286436e+002	-1.873376e+001	1.461725e+002
850172500	-1.894401e+001	1.384291e+002	-4.661240e-001	-1.307230e+002	-4.752554e-001	-1.308362e+002	-1.882236e+001	1.440122e+002
860171000	-2.078614e+001	1.273359e+002	-4.377839e-001	-1.327937e+002	-4.621242e-001	-1.327548e+002	-1.785661e+001	1.402367e+002
870169500	-2.126673e+001	1.224275e+002	-4.329399e-001	-1.349265e+002	-4.832143e-001	-1.349255e+002	-1.713812e+001	1.371562e+002
880168000	-2.015296e+001	1.251730e+002	-4.625380e-001	-1.371702e+002	-4.857762e-001	-1.371883e+002	-1.703392e+001	1.345075e+002
890166500	-1.797568e+001	1.280601e+002	-5.015821e-001	-1.395519e+002	-5.110789e-001	-1.395626e+002	-1.729718e+001	1.327357e+002
900165000	-1.673236e+001	1.264730e+002	-5.328923e-001	-1.417980e+002	-5.529519e-001	-1.417459e+002	-1.667860e+001	1.308865e+002
910163500	-1.599952e+001	1.243526e+002	-5.417291e-001	-1.440413e+002	-5.557448e-001	-1.440089e+002	-1.592503e+001	1.272263e+002
920162000	-1.572633e+001	1.224646e+002	-5.691936e-001	-1.462491e+002	-5.783212e-001	-1.462213e+002	-1.566241e+001	1.234353e+002
930160500	-1.576672e+001	1.203053e+002	-5.780216e-001	-1.484963e+002	-5.866780e-001	-1.484759e+002	-1.574443e+001	1.208505e+002
940159000	-1.601187e+001	1.117757e+002	-5.660389e-001	-1.505129e+002	-6.185814e-001	-1.507527e+002	-1.543058e+001	1.188298e+002
950157500	-1.592353e+001	1.022113e+002	-5.605277e-001	-1.525470e+002	-6.338931e-001	-1.528721e+002	-1.483843e+001	1.158662e+002
960156000	-1.552231e+001	1.014697e+002	-5.835879e-001	-1.546934e+002	-6.572268e-001	-1.551544e+002	-1.456128e+001	1.129324e+002
970154500	-1.492523e+001	1.059581e+002	-6.192774e-001	-1.572949e+002	-6.585969e-001	-1.574033e+002	-1.444289e+001	1.104877e+002
980153000	-1.407794e+001	1.087646e+002	-6.587705e-001	-1.597243e+002	-6.530007e-001	-1.598271e+002	-1.458023e+001	1.096426e+002
990151500	-1.328689e+001	1.065516e+002	-7.041632e-001	-1.620939e+002	-6.199351e-001	-1.623755e+002	-1.520931e+001	1.124967e+002
1000150000	-1.293684e+001	1.046286e+002	-7.056780e-001	-1.642824e+002	-6.238303e-001	-1.647927e+002	-1.516127e+001	1.124408e+002
1010148500	-1.295363e+001	1.019504e+002	-7.497643e-001	-1.666158e+002	-6.693399e-001	-1.669597e+002	-1.434849e+001	1.067830e+002
1020147000	-1.287437e+001	9.927988e+001	-7.742961e-001	-1.690334e+002	-7.625815e-001	-1.690270e+002	-1.289188e+001	9.781157e+001
1030145500	-1.222899e+001	9.703285e+001	-8.109098e-001	-1.714534e+002	-8.062395e-001	-1.713149e+002	-1.231953e+001	9.507995e+001
1040144000	-1.181619e+001	9.438941e+001	-8.462714e-001	-1.737458e+002	-8.283376e-001	-1.736562e+002	-1.190515e+001	9.210893e+001
1050142500	-1.162980e+001	9.203025e+001	-8.618574e-001	-1.761598e+002	-8.704564e-001	-1.758954e+002	-1.169528e+001	8.942477e+001
1060141000	-1.145990e+001	9.013638e+001	-8.804714e-001	-1.785019e+002	-9.030097e-001	-1.784826e+002	-1.154357e+001	8.713149e+001
1070139500	-1.084371e+001	9.002762e+001	-9.602693e-001	1.789374e+002	-8.608895e-001	1.793256e+002	-1.194378e+001	8.229221e+001
1080138000	-1.024921e+001	8.941280e+001	-1.035684e+000	1.764509e+002	-8.382321e-001	1.769886e+002	-1.205254e+001	7.779090e+001
1090136500	-9.981322e+000	8.692772e+001	-1.091992e+000	1.740528e+002	-9.052297e-001	1.745107e+002	-1.153679e+001	7.594540e+001
1100135000	-1.004328e+001	8.229164e+001	-1.118065e+000	1.717433e+002	-1.014218e+000	1.719277e+002	-1.063577e+001	7.569321e+001
1110133500	-9.763367e+000	7.802339e+001	-1.100814e+000	1.692879e+002	-1.118903e+000	1.695649e+002	-9.867900e+000	7.428043e+001
1120132000	-9.292874e+000	7.611522e+001	-1.150116e+000	1.666781e+002	-1.176028e+000	1.673237e+002	-9.453221e+000	7.169580e+001
1130130500	-9.163205e+000	7.388710e+001	-1.199027e+000	1.642147e+002	-1.196192e+000	1.648607e+002	-9.231182e+000	6.895161e+001
1140129000	-9.084661e+000	7.130290e+001	-1.230438e+000	1.619058e+002	-1.251277e+000	1.623311e+002	-9.103707e+000	6.604347e+001
1150127500	-8.741046e+000	6.865388e+001	-1.314947e+000	1.594341e+002	-1.309052e+000	1.595965e+002	-8.803884e+000	6.328182e+001
1160126000	-8.304404e+000	6.594452e+001	-1.402261e+000	1.570701e+002	-1.362392e+000	1.572358e+002	-8.451767e+000	6.060114e+001
1170124500	-8.063189e+000	6.312800e+001	-1.449753e+000	1.546613e+002	-1.428308e+000	1.548135e+002	-8.227923e+000	5.798699e+001
1180123000	-7.930847e+000	6.087010e+001	-1.488496e+000	1.521369e+002	-1.489207e+000	1.522622e+002	-8.028895e+000	5.537646e+001
1190121500	-7.717528e+000	5.894205e+001	-1.570301e+000	1.493885e+002	-1.563730e+000	1.494790e+002	-7.779376e+000	5.266391e+001
1200120000	-7.349150e+000	5.646125e+001	-1.633078e+000	1.470037e+002	-1.660203e+000	1.464834e+002	-7.356949e+000	5.225675e+001
1210118500	-7.151169e+000	5.376311e+001	-1.711181e+000	1.445972e+002	-1.759137e+000	1.436703e+002	-7.047575e+000	5.048219e+001
1220117000	-6.967808e+000	5.119246e+001	-1.777331e+000	1.419809e+002	-1.834139e+000	1.412044e+002	-6.833341e+000	4.718507e+001
1230115500	-6.710103e+000	4.866136e+001	-1.852194e+000	1.390559e+002	-1.886571e+000	1.390799e+002	-6.721963e+000	4.269629e+001
1240114000	-6.281559e+000	4.835828e+001	-2.010000e+000	1.357644e+002	-1.958953e+000	1.367407e+002	-6.424126e+000	3.948289e+001
1250112500	-5.974680e+000	4.775323e+001	-2.159015e+000	1.324127e+002	-2.029616e+000	1.343526e+002	-6.210490e+000	3.706337e+001
1260111000	-5.835997e+000	4.513060e+001	-2.247788e+000	1.297359e+002	-2.112844e+000	1.316737e+002	-6.066271e+000	3.418661e+001
1270109500	-5.764019e+000	4.027018e+001	-2.296067e+000	1.278989e+002	-2.228548e+000	1.289320e+002	-5.873605e+000	3.124967e+001
1280108000	-5.519758e+000	3.627950e+001	-2.349154e+000	1.259843e+002	-2.355645e+000	1.260376e+002	-5.610961e+000	2.904524e+001
1290106500	-5.308718e+000	3.376136e+001	-2.456805e+000	1.235025e+002	-2.484527e+000	1.230432e+002	-5.381592e+000	2.723138e+001
1300105000	-5.148590e+000	3.118662e+001	-2.551570e+000	1.210238e+002	-2.601327e+000	1.202339e+002	-5.150211e+000	2.447281e+001
1310103500	-5.000332e+000	2.858722e+001	-2.684530e+000	1.183730e+002	-2.712960e+000	1.179011e+002	-4.960209e+000	2.107689e+001
1320102000	-4.826353e+000	2.639451e+001	-2.812644e+000	1.153426e+002	-2.811424e+000	1.157253e+002	-4.774092e+000	1.776104e+001
1330100500	-4.751886e+000	2.527358e+001	-2.857743e+000	1.118551e+002	-2.935915e+000	1.134200e+002	-4.590072e+000	1.539355e+001
1340099000	-4.614685e+000	2.279059e+001	-2.980954e+000	1.090187e+002	-3.055080e+000	1.107640e+002	-4.463133e+000	1.253010e+001
1350097500	-4.370958e+000	1.945883e+001	-3.148305e+000	1.069004e+002	-3.183843e+000	1.080222e+002	-4.301942e+000	9.575158e+000
1360096000	-4.055784e+000	1.563289e+001	-3.362273e+000	1.050280e+002	-3.342236e+000	1.051696e+002	-4.060294e+000	6.713732e+000
1370094500	-3.913633e+000	1.371064e+001	-3.547831e+000	1.024851e+002	-3.544116e+000	1.018386e+002	-3.949961e+000	5.419310e+000
1380093000	-3.865025e+000	1.140056e+001	-3.707650e+000	9.996997e+001	-3.738618e+000	9.896981e+001	-3.844337e+000	3.262322e+000
1390091500	-3.760565e+000	8.501474e+000	-3.851641e+000	9.732883e+001	-3.890971e+000	9.655788e+001	-3.693983e+000	5.323047e-002
1400090000	-3.500897e+000	5.613650e+000	-4.003181e+000	9.460043e+001	-3.986407e+000	9.448769e+001	-3.480257e+000	-3.674058e+000
1410088500	-3.315511e+000	3.154096e+000	-4.150123e+000	9.208713e+001	-4.121187e+000	9.221172e+001	-3.313854e+000	-6.609767e+000
1420087000	-3.196946e+000	6.881564e-001	-4.282370e+000	8.963126e+001	-4.270655e+000	8.979128e+001	-3.196062e+000	-9.268100e+000
1430085500	-3.093579e+000	-2.042232e+000	-4.452985e+000	8.681575e+001	-4.430335e+000	8.717802e+001	-3.075239e+000	-1.196168e+001
1440084000	-2.934283e+000	-4.745361e+000	-4.639512e+000	8.410044e+001	-4.633814e+000	8.425720e+001	-2.938622e+000	-1.466926e+001
1450082500	-2.758246e+000	-6.975992e+000	-4.905900e+000	8.145193e+001	-4.817661e+000	8.170734e+001	-2.797070e+000	-1.727976e+001
1460081000	-2.655011e+000	-9.268731e+000	-5.203785e+000	7.881076e+001	-4.946764e+000	7.929972e+001	-2.722468e+000	-2.005640e+001
1470079500	-2.565874e+000	-1.209706e+001	-5.429303e+000	7.619443e+001	-5.114714e+000	7.651661e+001	-2.648683e+000	-2.292016e+001
1480078000	-2.457233e+000	-1.483421e+001	-5.559376e+000	7.374259e+001	-5.344330e+000	7.377842e+001	-2.508156e+000	-2.550458e+001
1490076500	-2.349519e+000	-1.716759e+001	-5.644629e+000	7.147335e+001	-5.574988e+000	7.141330e+001	-2.345736e+000	-2.783976e+001
1500075000	-2.329620e+000	-1.920712e+001	-5.856386e+000	6.925847e+001	-5.733035e+000	6.904300e+001	-2.253421e+000	-3.042065e+001
1510073500	-2.274574e+000	-2.160468e+001	-6.062288e+000	6.687129e+001	-5.937909e+000	6.632106e+001	-2.196808e+000	-3.320978e+001
