! Mini-Circuits
! S2P DATA File Format
! Type: Coaxial SMA Connectorized Low Pass Filter
! Model: VLF-575+    
! Note: All S Parameters are in dB deg format
! TEST CONDITIONS: INPUT POWER = 0dBm @Temperature = +25degC
! 401 Frequency points
!
# MHz S DB R 50
!    FREQ       dB(S11)   PHS(S11)  dB(S21)   PHS(S21)  dB(S12)   PHS(S12)  dB(S22)   PHS(S22) 
   50.000000   -35.728    16.408    -0.154   -15.206    -0.135   -15.076   -35.276    11.204 
   70.000000   -36.229     1.716    -0.157   -20.806    -0.179   -20.673   -33.723    -4.222 
   90.000000   -37.443   -12.818    -0.184   -26.421    -0.220   -26.328   -32.589   -18.994 
  110.000000   -37.528   -37.878    -0.194   -32.240    -0.208   -32.196   -31.795   -38.321 
  130.000000   -37.025   -56.849    -0.222   -38.148    -0.233   -37.973   -30.369   -48.628 
  150.000000   -39.184   -78.540    -0.239   -43.821    -0.230   -44.098   -29.400   -55.384 
  170.000000   -38.634  -103.700    -0.255   -49.786    -0.290   -49.730   -28.177   -63.986 
  190.000000   -37.579  -125.982    -0.299   -55.669    -0.294   -55.794   -27.197   -74.659 
  210.000000   -35.217  -151.460    -0.323   -61.697    -0.310   -61.663   -26.377   -81.650 
  230.000000   -33.843  -166.971    -0.320   -67.615    -0.330   -67.594   -25.653   -91.446 
  250.000000   -32.450   179.533    -0.312   -73.650    -0.338   -73.620   -24.861   -99.401 
  270.000000   -31.059   167.478    -0.363   -79.780    -0.385   -79.941   -23.997  -107.244 
  290.000000   -29.039   159.043    -0.387   -86.295    -0.378   -86.097   -23.722  -114.523 
  310.000000   -28.234   149.502    -0.409   -92.332    -0.399   -92.463   -23.146  -121.325 
  330.000000   -27.195   140.919    -0.440   -98.890    -0.419   -98.776   -22.620  -131.157 
  350.000000   -25.947   132.655    -0.460  -105.302    -0.459  -105.383   -22.033  -139.119 
  370.000000   -25.185   123.545    -0.474  -111.974    -0.483  -112.131   -21.927  -146.455 
  390.000000   -24.565   117.349    -0.522  -118.860    -0.507  -118.709   -21.602  -153.994 
  410.000000   -23.793   110.151    -0.546  -125.735    -0.537  -125.758   -21.636  -161.402 
  430.000000   -23.830    99.454    -0.590  -132.753    -0.556  -132.817   -21.558  -168.962 
  450.000000   -23.303    90.907    -0.605  -140.138    -0.589  -140.064   -21.629  -175.830 
  470.000000   -23.716    83.148    -0.636  -147.545    -0.628  -147.759   -21.584   177.252 
  490.000000   -23.765    71.783    -0.669  -155.318    -0.649  -155.462   -22.285   172.020 
  510.000000   -24.768    59.726    -0.694  -163.398    -0.682  -163.394   -23.101   166.738 
  530.000000   -25.899    49.181    -0.739  -171.732    -0.745  -171.749   -23.725   164.181 
  550.000000   -27.770    32.364    -0.805   179.753    -0.792   179.423   -24.886   166.297 
  575.000000   -30.419   -11.259    -0.837   168.069    -0.842   168.120   -25.931   176.173 
  590.000000   -30.085   -48.882    -0.890   160.922    -0.894   160.736   -25.840  -173.762 
  610.000000   -27.102   -89.090    -0.974   150.748    -0.947   150.642   -23.982  -162.899 
  630.000000   -22.893  -115.271    -1.063   139.748    -1.058   139.879   -21.514  -159.858 
  650.000000   -19.400  -131.922    -1.186   128.267    -1.188   128.198   -19.065  -163.977 
  670.000000   -16.731  -145.527    -1.360   115.738    -1.362   115.691   -16.876  -173.834 
  690.000000   -14.374  -158.097    -1.582   102.305    -1.585   102.370   -15.116   172.621 
  710.000000   -12.395  -168.779    -1.868    87.400    -1.858    87.483   -13.782   154.798 
  730.000000   -10.763  -178.067    -2.243    70.872    -2.227    71.047   -13.017   132.067 
  750.000000    -9.254   174.063    -2.723    52.259    -2.749    52.277   -12.827   101.445 
  770.000000    -7.631   167.159    -3.571    30.056    -3.551    30.173   -13.119    55.177 
  790.000000    -5.704   159.635    -5.008     3.935    -4.992     4.101   -11.798   -10.727 
  810.000000    -3.770   148.034    -7.664   -25.173    -7.676   -25.135    -8.184   -73.581 
  830.000000    -2.405   133.365   -12.005   -52.524   -12.002   -52.553    -5.210  -120.667 
  850.000000    -1.701   118.778   -17.809   -73.453   -17.826   -73.390    -3.559  -155.367 
  870.000000    -1.350   106.781   -25.041   -84.080   -25.057   -84.293    -2.704   178.311 
  900.000000    -1.100    91.115   -37.893   -47.384   -37.871   -47.397    -2.076   148.964 
  910.000000    -1.048    86.929   -38.455   -17.613   -38.394   -17.852    -1.959   140.667 
  930.000000    -0.960    78.716   -36.528     4.099   -36.499     3.952    -1.774   126.121 
  950.000000    -0.921    71.180   -36.301     5.444   -36.277     5.162    -1.636   113.108 
  970.000000    -0.848    64.264   -37.464     2.611   -37.392     2.624    -1.507   101.596 
  990.000000    -0.826    57.750   -39.636     0.168   -39.571     0.251    -1.446    90.983 
 1010.000000    -0.768    51.786   -42.917     1.014   -42.905     1.064    -1.380    81.444 
 1030.000000    -0.735    46.080   -47.473     9.956   -47.536     9.787    -1.330    72.052 
 1050.000000    -0.706    40.687   -52.330    49.173   -52.136    49.139    -1.267    63.500 
 1070.000000    -0.681    35.470   -49.573    95.942   -49.762    95.128    -1.233    55.474 
 1090.000000    -0.659    30.681   -45.930   109.769   -45.954   110.314    -1.202    47.515 
 1110.000000    -0.643    25.719   -43.582   112.044   -43.555   111.697    -1.146    40.132 
 1130.000000    -0.612    21.161   -42.077   110.143   -42.099   110.641    -1.117    33.035 
 1150.000000    -0.605    16.915   -41.032   107.902   -41.047   107.700    -1.077    26.204 
 1170.000000    -0.581    12.529   -40.433   104.265   -40.453   104.171    -1.028    19.646 
 1190.000000    -0.563     8.509   -40.051   100.318   -39.988   100.264    -1.003    13.273 
 1210.000000    -0.546     4.508   -39.891    96.311   -39.856    96.386    -0.969     7.127 
 1230.000000    -0.538     0.544   -39.875    92.364   -39.833    91.915    -0.948     1.001 
 1250.000000    -0.531    -3.257   -39.983    88.074   -39.931    88.146    -0.916    -4.789 
 1270.000000    -0.511    -6.933   -40.179    84.036   -40.152    84.109    -0.866   -10.305 
 1290.000000    -0.506   -10.736   -40.471    79.849   -40.497    80.286    -0.871   -15.782 
 1310.000000    -0.464   -14.062   -40.852    76.583   -40.869    76.443    -0.846   -21.232 
 1330.000000    -0.480   -17.644   -41.259    72.443   -41.289    72.280    -0.811   -26.270 
 1350.000000    -0.467   -21.024   -41.794    68.681   -41.766    68.738    -0.801   -31.412 
 1370.000000    -0.466   -24.371   -42.351    64.811   -42.365    64.969    -0.765   -36.370 
 1390.000000    -0.443   -27.721   -43.018    61.225   -42.944    61.602    -0.753   -41.109 
 1410.000000    -0.442   -30.948   -43.691    57.599   -43.642    57.391    -0.749   -45.867 
 1430.000000    -0.454   -34.155   -44.447    54.684   -44.420    54.243    -0.705   -50.457 
 1450.000000    -0.441   -37.340   -45.203    50.917   -45.144    50.503    -0.696   -54.823 
 1470.000000    -0.434   -40.432   -46.052    47.897   -45.958    47.232    -0.709   -59.346 
 1490.000000    -0.428   -43.500   -46.790    44.619   -46.984    44.519    -0.655   -63.559 
 1510.000000    -0.409   -46.488   -47.835    41.670   -47.748    41.102    -0.641   -67.761 
 1530.000000    -0.410   -49.455   -48.851    38.636   -48.847    38.060    -0.635   -71.883 
 1550.000000    -0.381   -52.356   -49.829    35.890   -49.998    35.628    -0.609   -75.947 
 1570.000000    -0.381   -55.380   -51.157    32.572   -51.142    33.446    -0.626   -79.874 
 1590.000000    -0.402   -58.229   -52.222    30.527   -52.174    30.718    -0.587   -83.776 
 1610.000000    -0.372   -61.035   -53.573    28.527   -53.755    28.369    -0.561   -87.568 
 1630.000000    -0.388   -63.803   -55.150    24.586   -55.163    28.325    -0.586   -91.398 
 1650.000000    -0.380   -66.669   -56.972    24.605   -56.619    25.053    -0.539   -95.113 
 1670.000000    -0.370   -69.257   -58.341    27.274   -58.614    22.145    -0.507   -98.829 
 1690.000000    -0.396   -71.986   -60.698    25.079   -60.713    24.285    -0.541  -102.208 
 1710.000000    -0.364   -74.838   -63.763    25.539   -63.051    26.519    -0.519  -105.597 
 1730.000000    -0.342   -77.495   -66.182    31.356   -66.577    38.371    -0.499  -109.050 
 1750.000000    -0.367   -80.158   -70.198    48.102   -69.085    44.692    -0.485  -112.569 
 1770.000000    -0.355   -82.697   -70.736    83.525   -73.249    84.771    -0.478  -115.774 
 1790.000000    -0.335   -85.213   -71.196   110.314   -70.670   115.245    -0.479  -118.753 
 1810.000000    -0.326   -88.096   -68.207   122.725   -69.739   132.201    -0.470  -121.927 
 1830.000000    -0.334   -90.535   -66.121   136.974   -65.671   140.601    -0.450  -125.209 
 1850.000000    -0.347   -93.075   -63.686   140.114   -63.691   144.408    -0.463  -128.201 
 1870.000000    -0.359   -95.762   -62.514   142.245   -62.832   144.663    -0.454  -131.210 
 1890.000000    -0.319   -98.191   -61.185   142.970   -61.048   140.235    -0.434  -134.182 
 1910.000000    -0.346  -100.529   -60.612   143.507   -60.797   143.480    -0.421  -137.130 
 1930.000000    -0.340  -103.228   -59.085   142.498   -59.687   141.541    -0.423  -140.006 
 1950.000000    -0.331  -105.806   -58.819   140.576   -59.205   138.057    -0.418  -142.853 
 1970.000000    -0.342  -107.997   -58.394   136.919   -58.276   138.288    -0.417  -145.732 
 1990.000000    -0.318  -110.514   -57.799   135.045   -57.863   135.265    -0.381  -148.696 
 2010.000000    -0.323  -112.822   -57.516   132.026   -57.157   132.461    -0.388  -151.224 
 2030.000000    -0.319  -115.325   -56.752   130.493   -57.163   132.911    -0.392  -153.903 
 2050.000000    -0.302  -117.768   -56.427   129.210   -56.221   130.175    -0.427  -156.714 
 2070.000000    -0.313  -120.121   -56.148   125.844   -55.928   125.828    -0.385  -159.215 
 2090.000000    -0.324  -122.520   -55.693   125.788   -55.448   124.831    -0.361  -161.952 
 2110.000000    -0.328  -124.844   -55.521   123.340   -55.285   121.733    -0.365  -164.460 
 2130.000000    -0.308  -127.019   -54.918   120.094   -55.135   116.835    -0.382  -166.804 
 2150.000000    -0.319  -129.613   -54.545   117.797   -54.613   117.739    -0.365  -169.445 
 2170.000000    -0.328  -131.682   -54.508   114.258   -54.123   115.182    -0.344  -171.786 
 2190.000000    -0.330  -133.923   -53.986   114.061   -53.817   114.391    -0.369  -173.942 
 2210.000000    -0.323  -136.161   -53.724   111.661   -53.943   110.983    -0.327  -176.531 
 2230.000000    -0.306  -138.490   -53.218   107.182   -53.233   108.481    -0.379  -178.889 
 2250.000000    -0.310  -140.781   -53.166   108.016   -52.723   106.892    -0.340   178.565 
 2270.000000    -0.333  -143.137   -52.825   103.007   -52.564   103.831    -0.328   176.476 
 2290.000000    -0.295  -145.307   -52.310   103.332   -52.402    98.755    -0.355   174.078 
 2310.000000    -0.322  -147.653   -51.968    98.976   -52.052    98.823    -0.338   171.760 
 2330.000000    -0.285  -149.719   -51.812    98.419   -51.617    96.491    -0.314   169.591 
 2350.000000    -0.313  -151.879   -51.417    95.615   -51.326    94.780    -0.295   167.534 
 2370.000000    -0.319  -153.985   -51.087    92.733   -51.038    92.826    -0.306   165.220 
 2390.000000    -0.305  -156.570   -50.625    90.512   -50.554    90.308    -0.316   163.213 
 2410.000000    -0.309  -158.504   -50.406    88.576   -50.425    88.640    -0.296   160.841 
 2430.000000    -0.335  -160.837   -49.996    86.588   -50.241    85.718    -0.313   158.975 
 2450.000000    -0.321  -162.920   -49.858    84.037   -49.826    84.199    -0.297   156.886 
 2470.000000    -0.300  -165.174   -49.548    81.328   -49.315    81.492    -0.308   154.826 
 2490.000000    -0.301  -167.171   -49.098    78.969   -49.073    79.065    -0.304   152.502 
 2510.000000    -0.300  -169.364   -48.638    76.361   -48.763    77.180    -0.302   150.557 
 2530.000000    -0.311  -171.478   -48.365    74.877   -48.441    76.538    -0.295   148.735 
 2550.000000    -0.294  -173.497   -48.102    73.807   -48.015    73.491    -0.279   146.672 
 2570.000000    -0.310  -175.704   -47.755    71.884   -47.867    71.157    -0.290   144.824 
 2590.000000    -0.310  -177.659   -47.598    69.368   -47.437    70.117    -0.282   142.708 
 2610.000000    -0.279  -179.900   -47.132    68.574   -47.022    68.193    -0.282   140.982 
 2630.000000    -0.333   178.236   -46.870    66.448   -46.827    64.520    -0.277   139.010 
 2650.000000    -0.311   175.937   -46.567    62.881   -46.498    63.719    -0.264   137.027 
 2670.000000    -0.284   173.844   -46.026    60.840   -46.096    61.906    -0.274   135.189 
 2690.000000    -0.323   171.831   -45.872    59.019   -45.785    59.360    -0.259   133.544 
 2710.000000    -0.307   169.649   -45.626    57.773   -45.657    57.677    -0.293   131.448 
 2730.000000    -0.294   167.794   -45.150    56.189   -45.160    55.282    -0.269   129.497 
 2750.000000    -0.310   165.552   -44.947    53.356   -44.927    53.779    -0.274   127.605 
 2770.000000    -0.297   163.664   -44.671    51.705   -44.629    51.778    -0.271   125.977 
 2790.000000    -0.274   161.560   -44.301    50.648   -44.371    49.851    -0.256   124.134 
 2810.000000    -0.284   159.362   -44.059    47.799   -44.083    48.079    -0.257   122.432 
 2830.000000    -0.300   157.627   -43.694    46.214   -43.692    46.143    -0.266   120.486 
 2850.000000    -0.323   155.725   -43.483    44.293   -43.430    44.575    -0.246   118.931 
 2870.000000    -0.301   153.520   -43.127    42.920   -43.217    41.979    -0.258   117.122 
 2890.000000    -0.291   151.547   -42.906    40.675   -42.976    40.905    -0.265   115.504 
 2910.000000    -0.333   149.592   -42.712    38.676   -42.657    38.869    -0.240   113.597 
 2930.000000    -0.299   147.593   -42.346    36.780   -42.316    36.892    -0.262   111.848 
 2950.000000    -0.305   145.774   -42.095    35.675   -42.098    34.982    -0.238   110.125 
 2970.000000    -0.311   143.535   -41.761    33.243   -41.811    33.403    -0.261   108.508 
 2990.000000    -0.290   141.528   -41.567    31.559   -41.570    31.047    -0.276   106.740 
 3010.000000    -0.285   139.560   -41.314    29.528   -41.283    29.717    -0.242   105.382 
 3030.000000    -0.318   137.874   -41.075    28.393   -41.065    28.337    -0.273   103.753 
 3050.000000    -0.304   135.995   -40.799    26.044   -40.796    26.132    -0.259   102.168 
 3070.000000    -0.284   133.887   -40.558    24.545   -40.532    24.141    -0.243   100.459 
 3090.000000    -0.301   131.979   -40.312    22.949   -40.269    23.260    -0.254    98.989 
 3120.000000    -0.286   129.135   -39.935    20.446   -39.978    20.187    -0.285    96.288 
 3160.000000    -0.282   125.402   -39.477    16.866   -39.431    16.600    -0.214    93.059 
 3200.000000    -0.295   121.511   -39.057    13.306   -39.057    13.746    -0.263    90.263 
 3240.000000    -0.310   117.838   -38.599     9.933   -38.534     9.927    -0.187    86.784 
 3280.000000    -0.281   114.156   -38.141     6.934   -38.171     6.691    -0.254    83.717 
 3320.000000    -0.290   110.509   -37.730     3.199   -37.757     2.879    -0.230    80.648 
 3360.000000    -0.289   106.713   -37.292     0.076   -37.338    -0.200    -0.244    77.849 
 3400.000000    -0.300   103.327   -36.937    -3.193   -36.928    -3.362    -0.208    74.687 
 3440.000000    -0.276    99.420   -36.571    -6.601   -36.596    -6.601    -0.244    71.967 
 3480.000000    -0.306    95.930   -36.208    -9.898   -36.234    -9.742    -0.264    68.781 
 3520.000000    -0.297    92.423   -35.881   -13.007   -35.831   -12.815    -0.231    66.205 
 3560.000000    -0.299    88.879   -35.547   -16.182   -35.503   -16.464    -0.239    62.962 
 3600.000000    -0.274    85.113   -35.200   -19.439   -35.184   -19.381    -0.235    60.326 
 3640.000000    -0.290    81.692   -34.852   -22.225   -34.788   -22.322    -0.231    57.287 
 3680.000000    -0.297    78.188   -34.601   -25.420   -34.472   -25.614    -0.225    54.520 
 3720.000000    -0.295    74.655   -34.249   -28.541   -34.272   -28.878    -0.232    51.747 
 3760.000000    -0.284    71.133   -33.977   -31.775   -33.942   -31.838    -0.220    49.083 
 3800.000000    -0.290    67.589   -33.642   -34.947   -33.566   -34.708    -0.229    46.209 
 3840.000000    -0.296    64.112   -33.406   -38.079   -33.399   -37.819    -0.220    43.501 
 3880.000000    -0.266    60.857   -33.058   -40.861   -33.106   -40.746    -0.237    40.745 
 3920.000000    -0.297    57.288   -32.849   -44.164   -32.820   -43.843    -0.224    38.019 
 3960.000000    -0.296    54.010   -32.613   -46.910   -32.525   -46.784    -0.224    35.494 
 4000.000000    -0.293    50.665   -32.380   -49.895   -32.342   -50.235    -0.220    32.660 
 4040.000000    -0.274    47.232   -32.128   -53.093   -32.143   -53.110    -0.254    30.085 
 4080.000000    -0.273    43.816   -31.889   -55.917   -31.858   -55.959    -0.204    27.414 
 4120.000000    -0.273    40.445   -31.669   -58.847   -31.669   -58.837    -0.207    24.757 
 4160.000000    -0.288    37.092   -31.468   -61.822   -31.430   -62.054    -0.240    22.078 
 4200.000000    -0.298    33.695   -31.258   -64.730   -31.281   -64.662    -0.247    19.601 
 4240.000000    -0.279    30.502   -31.055   -67.910   -31.027   -67.638    -0.204    16.936 
 4280.000000    -0.319    27.083   -30.966   -70.467   -30.924   -70.391    -0.243    14.335 
 4320.000000    -0.303    23.875   -30.812   -73.351   -30.774   -73.457    -0.239    11.776 
 4360.000000    -0.303    20.361   -30.656   -76.360   -30.619   -76.132    -0.223     9.157 
 4400.000000    -0.273    17.335   -30.555   -79.205   -30.518   -78.954    -0.236     6.615 
 4440.000000    -0.315    13.997   -30.495   -81.729   -30.427   -81.786    -0.242     4.046 
 4480.000000    -0.283    10.697   -30.390   -84.477   -30.388   -84.513    -0.224     1.400 
 4520.000000    -0.307     7.478   -30.385   -87.148   -30.346   -86.942    -0.242    -1.123 
 4560.000000    -0.300     4.039   -30.424   -89.583   -30.417   -89.527    -0.242    -3.663 
 4600.000000    -0.311     0.688   -30.571   -91.862   -30.555   -91.825    -0.261    -6.433 
 4640.000000    -0.320    -2.518   -30.816   -94.105   -30.790   -93.630    -0.244    -8.986 
 4680.000000    -0.335    -5.861   -31.291   -94.876   -31.266   -94.890    -0.261   -11.796 
 4720.000000    -0.348    -9.406   -32.094   -94.217   -32.020   -93.946    -0.276   -14.344 
 4760.000000    -0.404   -12.853   -33.415   -87.919   -33.328   -88.056    -0.271   -17.239 
 4800.000000    -0.474   -16.727   -34.631   -66.021   -34.597   -65.656    -0.352   -20.049 
 4840.000000    -0.666   -20.897   -30.391   -30.377   -30.337   -30.450    -0.468   -23.239 
 4880.000000    -1.106   -23.056   -22.613   -37.789   -22.636   -37.842    -0.753   -25.055 
 4920.000000    -1.061   -21.603   -19.727   -76.333   -19.682   -76.126    -0.766   -24.573 
 4960.000000    -0.595   -24.327   -20.551   -99.964   -20.554   -99.678    -0.453   -26.660 
 5000.000000    -0.501   -28.035   -21.575  -111.099   -21.554  -111.174    -0.396   -29.643 
 5040.000000    -0.373   -31.786   -22.142  -117.832   -22.154  -117.936    -0.315   -32.336 
 5080.000000    -0.387   -35.232   -22.600  -122.854   -22.578  -122.833    -0.315   -35.007 
 5120.000000    -0.333   -38.595   -22.755  -127.084   -22.749  -127.028    -0.263   -37.778 
 5160.000000    -0.364   -41.834   -22.981  -130.687   -22.947  -130.695    -0.323   -40.387 
 5200.000000    -0.318   -45.236   -22.968  -134.158   -22.968  -134.123    -0.290   -42.882 
